
T37B0 000:004 SEGGER J-Link V6.30d Log File (0000ms, 0004ms total)
T37B0 000:004 DLL Compiled: Feb 16 2018 13:30:32 (0000ms, 0004ms total)
T37B0 000:004 Logging started @ 2026-04-20 13:31 (0000ms, 0004ms total)
T37B0 000:004 JLINK_SetWarnOutHandler(...) (0000ms, 0004ms total)
T37B0 000:004 JLINK_OpenEx(...)
Firmware: J-Link V9 compiled May  7 2021 16:26:12
Hardware: V9.70
S/N: 602712614
Feature(s): JFlash, FlashDL, FlashBP, GDB, RDI
TELNET listener socket opened on port 19021WEBSRV 
Starting webserver (0052ms, 0056ms total)
T37B0 000:004 WEBSRV Webserver running on local port 19080 (0052ms, 0056ms total)
T37B0 000:004   returns O.K. (0052ms, 0056ms total)
T37B0 000:056 JLINK_GetEmuCaps()  returns 0xB9FF7BBF (0000ms, 0056ms total)
T37B0 000:056 JLINK_TIF_GetAvailable(...) (0002ms, 0058ms total)
T37B0 000:059 JLINK_SetErrorOutHandler(...) (0000ms, 0059ms total)
T37B0 000:059 JLINK_ExecCommand("ProjectFile = "D:\RjDir\UserData\Desktop\ARD20µçŃążî_0-10V´úÂë\Project\JLinkSettings.ini"", ...). Device "CORTEX-M0+" selected.  returns 0x00 (0056ms, 0115ms total)
T37B0 000:118 JLINK_ExecCommand("Device = PY32F072xB", ...). Device "CORTEX-M0+" selected.  returns 0x00 (0002ms, 0117ms total)
T37B0 000:120 JLINK_ExecCommand("DisableConnectionTimeout", ...).   returns 0x01 (0000ms, 0117ms total)
T37B0 000:120 JLINK_GetHardwareVersion()  returns 0x17AE8 (0000ms, 0117ms total)
T37B0 000:120 JLINK_GetDLLVersion()  returns 63004 (0000ms, 0117ms total)
T37B0 000:120 JLINK_GetFirmwareString(...) (0000ms, 0117ms total)
T37B0 000:124 JLINK_GetDLLVersion()  returns 63004 (0000ms, 0117ms total)
T37B0 000:124 JLINK_GetCompileDateTime() (0000ms, 0117ms total)
T37B0 000:126 JLINK_GetFirmwareString(...) (0000ms, 0117ms total)
T37B0 000:127 JLINK_GetHardwareVersion()  returns 0x17AE8 (0000ms, 0117ms total)
T37B0 000:133 JLINK_TIF_Select(JLINKARM_TIF_SWD)  returns 0x00 (0010ms, 0127ms total)
T37B0 000:143 JLINK_SetSpeed(2000) (0001ms, 0128ms total)
T37B0 000:144 JLINK_GetId() >0x10B TIF>Found SW-DP with ID 0x0BC11477 >0x0D TIF> >0x28 TIF> >0x0D TIF> >0x28 TIF> >0x0D TIF> >0x28 TIF> >0x0D TIF> >0x28 TIF> >0x0D TIF> >0x21 TIF> >0x0D TIF> >0x28 TIF>Scanning AP map to find all available APs >0x0D TIF> >0x28 TIF> >0x0D TIF> >0x21 TIF> >0x0D TIF> >0x21 TIF> >0x0D TIF> >0x28 TIF> >0x0D TIF> >0x21 TIF> >0x0D TIF> >0x21 TIF>AP[1]: Stopped AP scan as end of AP map has been reachedAP[0]: AHB-AP (IDR: 0x04770031)Iterating through AP map to find AHB-AP to use
 >0x42 TIF> >0x28 TIF> >0x0D TIF> >0x28 TIF> >0x0D TIF> >0x21 TIF> >0x0D TIF> >0x21 TIF> >0x42 TIF> >0x28 TIF> >0x0D TIF> >0x28 TIF> >0x0D TIF> >0x28 TIF> >0x0D TIF> >0x21 TIF> >0x0D TIF> >0x21 TIF>AP[0]: Core foundAP[0]: AHB-AP ROM base: 0xE00FF000 >0x0D TIF> >0x28 TIF> >0x0D TIF> >0x28 TIF> >0x0D TIF> >0x28 TIF> >0x0D TIF> >0x21 TIF> >0x0D TIF> >0x21 TIF>CPUID register: 0x410CC601. Implementer code: 0x41 (ARM)Found Cortex-M0 r0p1, Little endian. -- CPU_ReadMem(4 bytes @ 0xE000EDF0)
 -- CPU_WriteMem(4 bytes @ 0xE000EDF0) -- CPU_ReadMem(4 bytes @ 0xE0002000)FPUnit: 4 code (BP) slots and 0 literal slots -- CPU_ReadMem(4 bytes @ 0xE000EDFC) -- CPU_WriteMem(4 bytes @ 0xE000EDFC) -- CPU_ReadMem(4 bytes @ 0xE0001000) -- CPU_WriteMem(4 bytes @ 0xE0001000)CoreSight components:ROMTbl[0] @ E00FF000 -- CPU_ReadMem(16 bytes @ 0xE00FF000) -- CPU_ReadMem(16 bytes @ 0xE000EFF0) -- CPU_ReadMem(16 bytes @ 0xE000EFE0)ROMTbl[0][0]: E000E000, CID: B105E00D, PID: 000BB008 SCS
 -- CPU_ReadMem(16 bytes @ 0xE0001FF0) -- CPU_ReadMem(16 bytes @ 0xE0001FE0)ROMTbl[0][1]: E0001000, CID: B105E00D, PID: 000BB00A DWT -- CPU_ReadMem(16 bytes @ 0xE0002FF0) -- CPU_ReadMem(16 bytes @ 0xE0002FE0)ROMTbl[0][2]: E0002000, CID: B105E00D, PID: 000BB00B FPB >0x0D TIF> >0x21 TIF>  returns 0x0BC11477 (0361ms, 0489ms total)
T37B0 000:505 JLINK_GetDLLVersion()  returns 63004 (0000ms, 0489ms total)
T37B0 000:505 JLINK_CORE_GetFound()  returns 0x60000FF (0000ms, 0489ms total)
T37B0 000:505 JLINK_GetDebugInfo(0x100 = JLINKARM_ROM_TABLE_ADDR_INDEX) -- Value=0xE00FF000  returns 0x00 (0000ms, 0489ms total)
T37B0 000:510 JLINK_GetDebugInfo(0x100 = JLINKARM_ROM_TABLE_ADDR_INDEX) -- Value=0xE00FF000  returns 0x00 (0000ms, 0489ms total)
T37B0 000:510 JLINK_GetDebugInfo(0x101 = JLINKARM_DEBUG_INFO_ETM_ADDR_INDEX) -- Value=0x00000000  returns 0x00 (0000ms, 0489ms total)
T37B0 000:510 JLINK_ReadMemEx(0xE0041FF0, 0x0010 Bytes, ..., Flags = 0x02000004) -- CPU_ReadMem(16 bytes @ 0xE0041FF0) - Data: 00 00 00 00 00 00 00 00 00 00 00 00 00 00 00 00  returns 0x10 (0003ms, 0492ms total)
T37B0 000:513 JLINK_GetDebugInfo(0x102 = JLINKARM_DEBUG_INFO_MTB_ADDR_INDEX) -- Value=0x00000000  returns 0x00 (0000ms, 0492ms total)
T37B0 000:513 JLINK_GetDebugInfo(0x103 = JLINKARM_DEBUG_INFO_TPIU_ADDR_INDEX) -- Value=0x00000000  returns 0x00 (0000ms, 0492ms total)
T37B0 000:513 JLINK_ReadMemEx(0xE0040FF0, 0x0010 Bytes, ..., Flags = 0x02000004) -- CPU_ReadMem(16 bytes @ 0xE0040FF0) - Data: 00 00 00 00 00 00 00 00 00 00 00 00 00 00 00 00  returns 0x10 (0004ms, 0496ms total)
T37B0 000:517 JLINK_GetDebugInfo(0x104 = JLINKARM_DEBUG_INFO_ITM_ADDR_INDEX) -- Value=0xE0000000  returns 0x00 (0000ms, 0496ms total)
T37B0 000:517 JLINK_GetDebugInfo(0x105 = JLINKARM_DEBUG_INFO_DWT_ADDR_INDEX) -- Value=0xE0001000  returns 0x00 (0000ms, 0496ms total)
T37B0 000:517 JLINK_GetDebugInfo(0x106 = JLINKARM_DEBUG_INFO_FPB_ADDR_INDEX) -- Value=0xE0002000  returns 0x00 (0000ms, 0496ms total)
T37B0 000:517 JLINK_GetDebugInfo(0x107 = JLINKARM_DEBUG_INFO_NVIC_ADDR_INDEX) -- Value=0xE000E000  returns 0x00 (0000ms, 0496ms total)
T37B0 000:517 JLINK_GetDebugInfo(0x10C = JLINKARM_DEBUG_INFO_DBG_ADDR_INDEX) -- Value=0xE000EDF0  returns 0x00 (0000ms, 0496ms total)
T37B0 000:517 JLINK_ReadMemU32(0xE000ED00, 0x0001 Items, ...) -- CPU_ReadMem(4 bytes @ 0xE000ED00) - Data: 01 C6 0C 41  returns 0x01 (0004ms, 0500ms total)
T37B0 000:521 JLINK_GetDebugInfo(0x10F = JLINKARM_DEBUG_INFO_HAS_CORTEX_M_SECURITY_EXT_INDEX) -- Value=0x00000000  returns 0x00 (0000ms, 0500ms total)
T37B0 000:521 JLINK_SetResetType(JLINKARM_CM3_RESET_TYPE_NORMAL)  returns JLINKARM_CM3_RESET_TYPE_NORMAL (0000ms, 0500ms total)
T37B0 000:521 JLINK_Reset() -- CPU is running -- CPU_WriteMem(4 bytes @ 0xE000EDF0) -- CPU is running -- CPU_WriteMem(4 bytes @ 0xE000EDFC)Reset: Halt core after reset via DEMCR.VC_CORERESET. >0x35 TIF>Reset: Reset device via AIRCR.SYSRESETREQ. -- CPU is running -- CPU_WriteMem(4 bytes @ 0xE000ED0C) >0x0D TIF> >0x28 TIF> -- CPU_ReadMem(4 bytes @ 0xE000EDF0) -- CPU_ReadMem(4 bytes @ 0xE000EDF0) -- CPU is running -- CPU_WriteMem(4 bytes @ 0xE000EDF0) -- CPU is running -- CPU_WriteMem(4 bytes @ 0xE000EDFC)
 -- CPU_ReadMem(4 bytes @ 0xE000EDF0) -- CPU_WriteMem(4 bytes @ 0xE0002000) -- CPU_ReadMem(4 bytes @ 0xE000EDFC) -- CPU_ReadMem(4 bytes @ 0xE0001000) -- CPU_WriteMem(4 bytes @ 0xE0001000) (0124ms, 0624ms total)
T37B0 000:645 JLINK_Halt()  returns 0x00 (0000ms, 0624ms total)
T37B0 000:645 JLINK_ReadMemU32(0xE000EDF0, 0x0001 Items, ...) -- CPU_ReadMem(4 bytes @ 0xE000EDF0) - Data: 03 00 03 00  returns 0x01 (0004ms, 0628ms total)
T37B0 000:649 JLINK_WriteU32(0xE000EDF0, 0xA05F0003) -- CPU_WriteMem(4 bytes @ 0xE000EDF0)  returns 0x00 (0003ms, 0631ms total)
T37B0 000:652 JLINK_WriteU32(0xE000EDFC, 0x01000000) -- CPU_WriteMem(4 bytes @ 0xE000EDFC)  returns 0x00 (0003ms, 0634ms total)
T37B0 000:675 JLINK_GetHWStatus(...)  returns 0x00 (0004ms, 0638ms total)
T37B0 000:693 JLINK_GetNumBPUnits(Type = 0xFFFFFF00)  returns 0x04 (0000ms, 0638ms total)
T37B0 000:693 JLINK_GetNumBPUnits(Type = 0xF0)  returns 0x2000 (0000ms, 0638ms total)
T37B0 000:693 JLINK_GetNumWPUnits()  returns 0x02 (0000ms, 0638ms total)
T37B0 000:706 JLINK_GetSpeed()  returns 0x7D0 (0000ms, 0638ms total)
T37B0 000:718 JLINK_ReadMemU32(0xE000E004, 0x0001 Items, ...) -- CPU_ReadMem(4 bytes @ 0xE000E004) - Data: 00 00 00 00  returns 0x01 (0007ms, 0645ms total)
T37B0 000:726 JLINK_Halt()  returns 0x00 (0000ms, 0645ms total)
T37B0 000:726 JLINK_IsHalted()  returns TRUE (0000ms, 0645ms total)
T37B0 000:730 JLINK_WriteMem(0x20000000, 0x0408 Bytes, ...) - Data: 00 BE 0A E0 0D 78 2D 06 68 40 08 24 40 00 00 D3 ... -- CPU_WriteMem(1032 bytes @ 0x20000000)  returns 0x408 (0012ms, 0657ms total)
T37B0 000:742 JLINK_WriteReg(R0, 0x08000000)  returns 0x00 (0000ms, 0657ms total)
T37B0 000:742 JLINK_WriteReg(R1, 0x00B71B00)  returns 0x00 (0000ms, 0657ms total)
T37B0 000:742 JLINK_WriteReg(R2, 0x00000001)  returns 0x00 (0000ms, 0657ms total)
T37B0 000:742 JLINK_WriteReg(R3, 0x00000000)  returns 0x00 (0000ms, 0657ms total)
T37B0 000:742 JLINK_WriteReg(R4, 0x00000000)  returns 0x00 (0000ms, 0657ms total)
T37B0 000:742 JLINK_WriteReg(R5, 0x00000000)  returns 0x00 (0000ms, 0657ms total)
T37B0 000:742 JLINK_WriteReg(R6, 0x00000000)  returns 0x00 (0000ms, 0657ms total)
T37B0 000:742 JLINK_WriteReg(R7, 0x00000000)  returns 0x00 (0000ms, 0657ms total)
T37B0 000:742 JLINK_WriteReg(R8, 0x00000000)  returns 0x00 (0000ms, 0657ms total)
T37B0 000:742 JLINK_WriteReg(R9, 0x20000400)  returns 0x00 (0000ms, 0657ms total)
T37B0 000:742 JLINK_WriteReg(R10, 0x00000000)  returns 0x00 (0000ms, 0657ms total)
T37B0 000:742 JLINK_WriteReg(R11, 0x00000000)  returns 0x00 (0000ms, 0657ms total)
T37B0 000:742 JLINK_WriteReg(R12, 0x00000000)  returns 0x00 (0000ms, 0657ms total)
T37B0 000:742 JLINK_WriteReg(R13 (SP), 0x20001000)  returns 0x00 (0000ms, 0657ms total)
T37B0 000:742 JLINK_WriteReg(R14, 0x20000001)  returns 0x00 (0000ms, 0657ms total)
T37B0 000:742 JLINK_WriteReg(R15 (PC), 0x200001A8)  returns 0x00 (0000ms, 0657ms total)
T37B0 000:742 JLINK_WriteReg(XPSR, 0x01000000)  returns 0x00 (0000ms, 0657ms total)
T37B0 000:742 JLINK_WriteReg(MSP, 0x20001000)  returns 0x00 (0000ms, 0657ms total)
T37B0 000:742 JLINK_WriteReg(PSP, 0x20001000)  returns 0x00 (0000ms, 0657ms total)
T37B0 000:742 JLINK_WriteReg(CFBP, 0x00000000)  returns 0x00 (0000ms, 0657ms total)
T37B0 000:742 JLINK_SetBPEx(Addr = 0x20000000, Type = 0xFFFFFFF2) -- CPU_ReadMem(4 bytes @ 0x20000000) -- CPU_WriteMem(4 bytes @ 0x20000000) -- CPU_ReadMem(4 bytes @ 0x20000000) -- CPU_WriteMem(4 bytes @ 0x20000000) -- CPU_ReadMem(2 bytes @ 0x20000000)  returns 0x00000001 (0024ms, 0681ms total)
T37B0 000:766 JLINK_Go() -- CPU_WriteMem(2 bytes @ 0x20000000) -- CPU_ReadMem(4 bytes @ 0xE0001000) -- CPU_WriteMem(4 bytes @ 0xE0001000) -- CPU_WriteMem(4 bytes @ 0xE0002008) -- CPU_WriteMem(4 bytes @ 0xE000200C) -- CPU_WriteMem(4 bytes @ 0xE0002010) -- CPU_WriteMem(4 bytes @ 0xE0002014) -- CPU_WriteMem(4 bytes @ 0xE0001004) (0025ms, 0706ms total)
T37B0 000:791 JLINK_IsHalted() -- CPU_ReadMem(2 bytes @ 0x20000000)  returns TRUE (0014ms, 0720ms total)
T37B0 000:805 JLINK_ReadReg(R15 (PC))  returns 0x20000000 (0000ms, 0706ms total)
T37B0 000:805 JLINK_ClrBPEx(BPHandle = 0x00000001)  returns 0x00 (0000ms, 0706ms total)
T37B0 000:805 JLINK_ReadReg(R0)  returns 0x00000000 (0000ms, 0706ms total)
T37B0 000:805 JLINK_WriteReg(R0, 0x08000000)  returns 0x00 (0000ms, 0706ms total)
T37B0 000:805 JLINK_WriteReg(R1, 0x00B71B00)  returns 0x00 (0000ms, 0706ms total)
T37B0 000:805 JLINK_WriteReg(R2, 0x00000001)  returns 0x00 (0000ms, 0706ms total)
T37B0 000:805 JLINK_WriteReg(R3, 0x00000000)  returns 0x00 (0000ms, 0706ms total)
T37B0 000:805 JLINK_WriteReg(R4, 0x00000000)  returns 0x00 (0000ms, 0706ms total)
T37B0 000:805 JLINK_WriteReg(R5, 0x00000000)  returns 0x00 (0000ms, 0706ms total)
T37B0 000:805 JLINK_WriteReg(R6, 0x00000000)  returns 0x00 (0000ms, 0706ms total)
T37B0 000:805 JLINK_WriteReg(R7, 0x00000000)  returns 0x00 (0000ms, 0706ms total)
T37B0 000:805 JLINK_WriteReg(R8, 0x00000000)  returns 0x00 (0000ms, 0706ms total)
T37B0 000:805 JLINK_WriteReg(R9, 0x20000400)  returns 0x00 (0000ms, 0706ms total)
T37B0 000:805 JLINK_WriteReg(R10, 0x00000000)  returns 0x00 (0000ms, 0706ms total)
T37B0 000:805 JLINK_WriteReg(R11, 0x00000000)  returns 0x00 (0000ms, 0706ms total)
T37B0 000:805 JLINK_WriteReg(R12, 0x00000000)  returns 0x00 (0000ms, 0706ms total)
T37B0 000:805 JLINK_WriteReg(R13 (SP), 0x20001000)  returns 0x00 (0000ms, 0706ms total)
T37B0 000:805 JLINK_WriteReg(R14, 0x20000001)  returns 0x00 (0000ms, 0706ms total)
T37B0 000:805 JLINK_WriteReg(R15 (PC), 0x2000021E)  returns 0x00 (0000ms, 0706ms total)
T37B0 000:806 JLINK_WriteReg(XPSR, 0x01000000)  returns 0x00 (0000ms, 0707ms total)
T37B0 000:806 JLINK_WriteReg(MSP, 0x20001000)  returns 0x00 (0000ms, 0707ms total)
T37B0 000:806 JLINK_WriteReg(PSP, 0x20001000)  returns 0x00 (0000ms, 0707ms total)
T37B0 000:806 JLINK_WriteReg(CFBP, 0x00000000)  returns 0x00 (0000ms, 0707ms total)
T37B0 000:806 JLINK_SetBPEx(Addr = 0x20000000, Type = 0xFFFFFFF2)  returns 0x00000002 (0000ms, 0707ms total)
T37B0 000:806 JLINK_Go() -- CPU_ReadMem(4 bytes @ 0xE0001000) -- CPU_WriteMem(4 bytes @ 0xE0001000) (0012ms, 0719ms total)
T37B0 000:818 JLINK_IsHalted()  returns FALSE (0004ms, 0723ms total)
T37B0 000:851 JLINK_IsHalted() -- CPU_ReadMem(2 bytes @ 0x20000000)  returns TRUE (0012ms, 0731ms total)
T37B0 000:863 JLINK_ReadReg(R15 (PC))  returns 0x20000000 (0000ms, 0719ms total)
T37B0 000:863 JLINK_ClrBPEx(BPHandle = 0x00000002)  returns 0x00 (0000ms, 0719ms total)
T37B0 000:863 JLINK_ReadReg(R0)  returns 0x00000000 (0000ms, 0719ms total)
T37B0 000:916 JLINK_WriteReg(R0, 0x00000001)  returns 0x00 (0000ms, 0719ms total)
T37B0 000:916 JLINK_WriteReg(R1, 0x00B71B00)  returns 0x00 (0000ms, 0719ms total)
T37B0 000:916 JLINK_WriteReg(R2, 0x00000001)  returns 0x00 (0000ms, 0719ms total)
T37B0 000:916 JLINK_WriteReg(R3, 0x00000000)  returns 0x00 (0000ms, 0719ms total)
T37B0 000:916 JLINK_WriteReg(R4, 0x00000000)  returns 0x00 (0000ms, 0719ms total)
T37B0 000:916 JLINK_WriteReg(R5, 0x00000000)  returns 0x00 (0000ms, 0719ms total)
T37B0 000:916 JLINK_WriteReg(R6, 0x00000000)  returns 0x00 (0000ms, 0719ms total)
T37B0 000:916 JLINK_WriteReg(R7, 0x00000000)  returns 0x00 (0000ms, 0719ms total)
T37B0 000:916 JLINK_WriteReg(R8, 0x00000000)  returns 0x00 (0000ms, 0719ms total)
T37B0 000:916 JLINK_WriteReg(R9, 0x20000400)  returns 0x00 (0000ms, 0719ms total)
T37B0 000:916 JLINK_WriteReg(R10, 0x00000000)  returns 0x00 (0000ms, 0719ms total)
T37B0 000:916 JLINK_WriteReg(R11, 0x00000000)  returns 0x00 (0000ms, 0719ms total)
T37B0 000:916 JLINK_WriteReg(R12, 0x00000000)  returns 0x00 (0000ms, 0719ms total)
T37B0 000:916 JLINK_WriteReg(R13 (SP), 0x20001000)  returns 0x00 (0000ms, 0719ms total)
T37B0 000:916 JLINK_WriteReg(R14, 0x20000001)  returns 0x00 (0000ms, 0719ms total)
T37B0 000:916 JLINK_WriteReg(R15 (PC), 0x20000204)  returns 0x00 (0000ms, 0719ms total)
T37B0 000:916 JLINK_WriteReg(XPSR, 0x01000000)  returns 0x00 (0000ms, 0719ms total)
T37B0 000:916 JLINK_WriteReg(MSP, 0x20001000)  returns 0x00 (0000ms, 0719ms total)
T37B0 000:916 JLINK_WriteReg(PSP, 0x20001000)  returns 0x00 (0000ms, 0719ms total)
T37B0 000:916 JLINK_WriteReg(CFBP, 0x00000000)  returns 0x00 (0000ms, 0719ms total)
T37B0 000:916 JLINK_SetBPEx(Addr = 0x20000000, Type = 0xFFFFFFF2)  returns 0x00000003 (0000ms, 0719ms total)
T37B0 000:916 JLINK_Go() -- CPU_ReadMem(4 bytes @ 0xE0001000) -- CPU_WriteMem(4 bytes @ 0xE0001000) (0014ms, 0733ms total)
T37B0 000:930 JLINK_IsHalted() -- CPU_ReadMem(2 bytes @ 0x20000000)  returns TRUE (0010ms, 0743ms total)
T37B0 000:941 JLINK_ReadReg(R15 (PC))  returns 0x20000000 (0000ms, 0733ms total)
T37B0 000:941 JLINK_ClrBPEx(BPHandle = 0x00000003)  returns 0x00 (0000ms, 0733ms total)
T37B0 000:941 JLINK_ReadReg(R0)  returns 0x00000000 (0000ms, 0733ms total)
T37B0 000:948 JLINK_WriteMem(0x20000000, 0x0408 Bytes, ...) - Data: 00 BE 0A E0 0D 78 2D 06 68 40 08 24 40 00 00 D3 ... -- CPU_WriteMem(1032 bytes @ 0x20000000)  returns 0x408 (0010ms, 0743ms total)
T37B0 000:958 JLINK_WriteReg(R0, 0x08000000)  returns 0x00 (0000ms, 0743ms total)
T37B0 000:958 JLINK_WriteReg(R1, 0x00B71B00)  returns 0x00 (0000ms, 0743ms total)
T37B0 000:958 JLINK_WriteReg(R2, 0x00000002)  returns 0x00 (0000ms, 0743ms total)
T37B0 000:958 JLINK_WriteReg(R3, 0x00000000)  returns 0x00 (0000ms, 0743ms total)
T37B0 000:958 JLINK_WriteReg(R4, 0x00000000)  returns 0x00 (0000ms, 0743ms total)
T37B0 000:958 JLINK_WriteReg(R5, 0x00000000)  returns 0x00 (0000ms, 0743ms total)
T37B0 000:958 JLINK_WriteReg(R6, 0x00000000)  returns 0x00 (0000ms, 0743ms total)
T37B0 000:958 JLINK_WriteReg(R7, 0x00000000)  returns 0x00 (0000ms, 0743ms total)
T37B0 000:958 JLINK_WriteReg(R8, 0x00000000)  returns 0x00 (0000ms, 0743ms total)
T37B0 000:958 JLINK_WriteReg(R9, 0x20000400)  returns 0x00 (0000ms, 0743ms total)
T37B0 000:958 JLINK_WriteReg(R10, 0x00000000)  returns 0x00 (0000ms, 0743ms total)
T37B0 000:958 JLINK_WriteReg(R11, 0x00000000)  returns 0x00 (0000ms, 0743ms total)
T37B0 000:958 JLINK_WriteReg(R12, 0x00000000)  returns 0x00 (0000ms, 0743ms total)
T37B0 000:958 JLINK_WriteReg(R13 (SP), 0x20001000)  returns 0x00 (0000ms, 0743ms total)
T37B0 000:958 JLINK_WriteReg(R14, 0x20000001)  returns 0x00 (0000ms, 0743ms total)
T37B0 000:958 JLINK_WriteReg(R15 (PC), 0x200001A8)  returns 0x00 (0000ms, 0743ms total)
T37B0 000:958 JLINK_WriteReg(XPSR, 0x01000000)  returns 0x00 (0000ms, 0743ms total)
T37B0 000:958 JLINK_WriteReg(MSP, 0x20001000)  returns 0x00 (0000ms, 0743ms total)
T37B0 000:958 JLINK_WriteReg(PSP, 0x20001000)  returns 0x00 (0000ms, 0743ms total)
T37B0 000:958 JLINK_WriteReg(CFBP, 0x00000000)  returns 0x00 (0000ms, 0743ms total)
T37B0 000:958 JLINK_SetBPEx(Addr = 0x20000000, Type = 0xFFFFFFF2) -- CPU_ReadMem(4 bytes @ 0x20000000) -- CPU_WriteMem(4 bytes @ 0x20000000) -- CPU_ReadMem(4 bytes @ 0x20000000) -- CPU_WriteMem(4 bytes @ 0x20000000) -- CPU_ReadMem(2 bytes @ 0x20000000)  returns 0x00000004 (0018ms, 0761ms total)
T37B0 000:976 JLINK_Go() -- CPU_WriteMem(2 bytes @ 0x20000000) -- CPU_ReadMem(4 bytes @ 0xE0001000) -- CPU_WriteMem(4 bytes @ 0xE0001000) (0019ms, 0780ms total)
T37B0 000:995 JLINK_IsHalted() -- CPU_ReadMem(2 bytes @ 0x20000000)  returns TRUE (0015ms, 0795ms total)
T37B0 001:010 JLINK_ReadReg(R15 (PC))  returns 0x20000000 (0000ms, 0780ms total)
T37B0 001:010 JLINK_ClrBPEx(BPHandle = 0x00000004)  returns 0x00 (0000ms, 0780ms total)
T37B0 001:010 JLINK_ReadReg(R0)  returns 0x00000000 (0000ms, 0780ms total)
T37B0 001:010 JLINK_WriteMem(0x20000408, 0x0100 Bytes, ...) - Data: 10 20 00 20 91 01 00 08 B7 AA 00 08 E1 61 00 08 ... -- CPU_WriteMem(256 bytes @ 0x20000408)  returns 0x100 (0006ms, 0786ms total)
T37B0 001:016 JLINK_WriteReg(R0, 0x08000000)  returns 0x00 (0000ms, 0786ms total)
T37B0 001:016 JLINK_WriteReg(R1, 0x00000100)  returns 0x00 (0000ms, 0786ms total)
T37B0 001:016 JLINK_WriteReg(R2, 0x20000408)  returns 0x00 (0000ms, 0786ms total)
T37B0 001:016 JLINK_WriteReg(R3, 0x00000000)  returns 0x00 (0000ms, 0786ms total)
T37B0 001:016 JLINK_WriteReg(R4, 0x00000000)  returns 0x00 (0000ms, 0786ms total)
T37B0 001:016 JLINK_WriteReg(R5, 0x00000000)  returns 0x00 (0000ms, 0786ms total)
T37B0 001:016 JLINK_WriteReg(R6, 0x00000000)  returns 0x00 (0000ms, 0786ms total)
T37B0 001:016 JLINK_WriteReg(R7, 0x00000000)  returns 0x00 (0000ms, 0786ms total)
T37B0 001:016 JLINK_WriteReg(R8, 0x00000000)  returns 0x00 (0000ms, 0786ms total)
T37B0 001:016 JLINK_WriteReg(R9, 0x20000400)  returns 0x00 (0000ms, 0786ms total)
T37B0 001:016 JLINK_WriteReg(R10, 0x00000000)  returns 0x00 (0000ms, 0786ms total)
T37B0 001:016 JLINK_WriteReg(R11, 0x00000000)  returns 0x00 (0000ms, 0786ms total)
T37B0 001:016 JLINK_WriteReg(R12, 0x00000000)  returns 0x00 (0000ms, 0786ms total)
T37B0 001:016 JLINK_WriteReg(R13 (SP), 0x20001000)  returns 0x00 (0000ms, 0786ms total)
T37B0 001:016 JLINK_WriteReg(R14, 0x20000001)  returns 0x00 (0000ms, 0786ms total)
T37B0 001:016 JLINK_WriteReg(R15 (PC), 0x20000322)  returns 0x00 (0000ms, 0786ms total)
T37B0 001:016 JLINK_WriteReg(XPSR, 0x01000000)  returns 0x00 (0000ms, 0786ms total)
T37B0 001:016 JLINK_WriteReg(MSP, 0x20001000)  returns 0x00 (0000ms, 0786ms total)
T37B0 001:016 JLINK_WriteReg(PSP, 0x20001000)  returns 0x00 (0000ms, 0786ms total)
T37B0 001:016 JLINK_WriteReg(CFBP, 0x00000000)  returns 0x00 (0000ms, 0786ms total)
T37B0 001:016 JLINK_SetBPEx(Addr = 0x20000000, Type = 0xFFFFFFF2)  returns 0x00000005 (0000ms, 0786ms total)
T37B0 001:016 JLINK_Go() -- CPU_ReadMem(4 bytes @ 0xE0001000) -- CPU_WriteMem(4 bytes @ 0xE0001000) (0017ms, 0803ms total)
T37B0 001:033 JLINK_IsHalted() -- CPU_ReadMem(2 bytes @ 0x20000000)  returns TRUE (0014ms, 0817ms total)
T37B0 001:047 JLINK_ReadReg(R15 (PC))  returns 0x20000000 (0000ms, 0803ms total)
T37B0 001:047 JLINK_ClrBPEx(BPHandle = 0x00000005)  returns 0x00 (0000ms, 0803ms total)
T37B0 001:047 JLINK_ReadReg(R0)  returns 0x00000000 (0000ms, 0803ms total)
T37B0 001:048 JLINK_WriteMem(0x20000408, 0x0100 Bytes, ...) - Data: 18 C3 01 00 00 23 00 24 00 25 00 26 10 3A 01 D3 ... -- CPU_WriteMem(256 bytes @ 0x20000408)  returns 0x100 (0006ms, 0809ms total)
T37B0 001:054 JLINK_WriteReg(R0, 0x08000100)  returns 0x00 (0000ms, 0809ms total)
T37B0 001:054 JLINK_WriteReg(R1, 0x00000100)  returns 0x00 (0000ms, 0809ms total)
T37B0 001:054 JLINK_WriteReg(R2, 0x20000408)  returns 0x00 (0000ms, 0809ms total)
T37B0 001:054 JLINK_WriteReg(R3, 0x00000000)  returns 0x00 (0000ms, 0809ms total)
T37B0 001:054 JLINK_WriteReg(R4, 0x00000000)  returns 0x00 (0000ms, 0809ms total)
T37B0 001:054 JLINK_WriteReg(R5, 0x00000000)  returns 0x00 (0000ms, 0809ms total)
T37B0 001:054 JLINK_WriteReg(R6, 0x00000000)  returns 0x00 (0000ms, 0809ms total)
T37B0 001:054 JLINK_WriteReg(R7, 0x00000000)  returns 0x00 (0000ms, 0809ms total)
T37B0 001:054 JLINK_WriteReg(R8, 0x00000000)  returns 0x00 (0000ms, 0809ms total)
T37B0 001:055 JLINK_WriteReg(R9, 0x20000400)  returns 0x00 (0000ms, 0809ms total)
T37B0 001:055 JLINK_WriteReg(R10, 0x00000000)  returns 0x00 (0000ms, 0809ms total)
T37B0 001:055 JLINK_WriteReg(R11, 0x00000000)  returns 0x00 (0000ms, 0809ms total)
T37B0 001:055 JLINK_WriteReg(R12, 0x00000000)  returns 0x00 (0000ms, 0809ms total)
T37B0 001:055 JLINK_WriteReg(R13 (SP), 0x20001000)  returns 0x00 (0000ms, 0809ms total)
T37B0 001:055 JLINK_WriteReg(R14, 0x20000001)  returns 0x00 (0000ms, 0809ms total)
T37B0 001:055 JLINK_WriteReg(R15 (PC), 0x20000322)  returns 0x00 (0000ms, 0809ms total)
T37B0 001:055 JLINK_WriteReg(XPSR, 0x01000000)  returns 0x00 (0000ms, 0809ms total)
T37B0 001:055 JLINK_WriteReg(MSP, 0x20001000)  returns 0x00 (0000ms, 0809ms total)
T37B0 001:055 JLINK_WriteReg(PSP, 0x20001000)  returns 0x00 (0000ms, 0809ms total)
T37B0 001:055 JLINK_WriteReg(CFBP, 0x00000000)  returns 0x00 (0000ms, 0809ms total)
T37B0 001:055 JLINK_SetBPEx(Addr = 0x20000000, Type = 0xFFFFFFF2)  returns 0x00000006 (0000ms, 0809ms total)
T37B0 001:055 JLINK_Go() -- CPU_ReadMem(4 bytes @ 0xE0001000) -- CPU_WriteMem(4 bytes @ 0xE0001000) (0015ms, 0824ms total)
T37B0 001:070 JLINK_IsHalted() -- CPU_ReadMem(2 bytes @ 0x20000000)  returns TRUE (0017ms, 0841ms total)
T37B0 001:087 JLINK_ReadReg(R15 (PC))  returns 0x20000000 (0000ms, 0824ms total)
T37B0 001:091 JLINK_ClrBPEx(BPHandle = 0x00000006)  returns 0x00 (0001ms, 0825ms total)
T37B0 001:092 JLINK_ReadReg(R0)  returns 0x00000000 (0000ms, 0825ms total)
T37B0 001:092 JLINK_WriteMem(0x20000408, 0x0100 Bytes, ...) - Data: F8 B5 0E 46 04 46 00 20 20 62 20 46 E1 68 88 47 ... -- CPU_WriteMem(256 bytes @ 0x20000408)  returns 0x100 (0006ms, 0831ms total)
T37B0 001:098 JLINK_WriteReg(R0, 0x08000200)  returns 0x00 (0000ms, 0831ms total)
T37B0 001:098 JLINK_WriteReg(R1, 0x00000100)  returns 0x00 (0000ms, 0831ms total)
T37B0 001:098 JLINK_WriteReg(R2, 0x20000408)  returns 0x00 (0000ms, 0831ms total)
T37B0 001:098 JLINK_WriteReg(R3, 0x00000000)  returns 0x00 (0000ms, 0831ms total)
T37B0 001:098 JLINK_WriteReg(R4, 0x00000000)  returns 0x00 (0000ms, 0831ms total)
T37B0 001:098 JLINK_WriteReg(R5, 0x00000000)  returns 0x00 (0000ms, 0831ms total)
T37B0 001:098 JLINK_WriteReg(R6, 0x00000000)  returns 0x00 (0000ms, 0831ms total)
T37B0 001:098 JLINK_WriteReg(R7, 0x00000000)  returns 0x00 (0000ms, 0831ms total)
T37B0 001:098 JLINK_WriteReg(R8, 0x00000000)  returns 0x00 (0000ms, 0831ms total)
T37B0 001:098 JLINK_WriteReg(R9, 0x20000400)  returns 0x00 (0000ms, 0831ms total)
T37B0 001:098 JLINK_WriteReg(R10, 0x00000000)  returns 0x00 (0000ms, 0831ms total)
T37B0 001:098 JLINK_WriteReg(R11, 0x00000000)  returns 0x00 (0000ms, 0831ms total)
T37B0 001:098 JLINK_WriteReg(R12, 0x00000000)  returns 0x00 (0000ms, 0831ms total)
T37B0 001:098 JLINK_WriteReg(R13 (SP), 0x20001000)  returns 0x00 (0000ms, 0831ms total)
T37B0 001:098 JLINK_WriteReg(R14, 0x20000001)  returns 0x00 (0000ms, 0831ms total)
T37B0 001:098 JLINK_WriteReg(R15 (PC), 0x20000322)  returns 0x00 (0000ms, 0831ms total)
T37B0 001:098 JLINK_WriteReg(XPSR, 0x01000000)  returns 0x00 (0000ms, 0831ms total)
T37B0 001:098 JLINK_WriteReg(MSP, 0x20001000)  returns 0x00 (0000ms, 0831ms total)
T37B0 001:098 JLINK_WriteReg(PSP, 0x20001000)  returns 0x00 (0000ms, 0831ms total)
T37B0 001:098 JLINK_WriteReg(CFBP, 0x00000000)  returns 0x00 (0000ms, 0831ms total)
T37B0 001:098 JLINK_SetBPEx(Addr = 0x20000000, Type = 0xFFFFFFF2)  returns 0x00000007 (0000ms, 0831ms total)
T37B0 001:098 JLINK_Go() -- CPU_ReadMem(4 bytes @ 0xE0001000) -- CPU_WriteMem(4 bytes @ 0xE0001000) (0016ms, 0847ms total)
T37B0 001:114 JLINK_IsHalted() -- CPU_ReadMem(2 bytes @ 0x20000000)  returns TRUE (0014ms, 0861ms total)
T37B0 001:128 JLINK_ReadReg(R15 (PC))  returns 0x20000000 (0000ms, 0847ms total)
T37B0 001:128 JLINK_ClrBPEx(BPHandle = 0x00000007)  returns 0x00 (0000ms, 0847ms total)
T37B0 001:128 JLINK_ReadReg(R0)  returns 0x00000000 (0000ms, 0847ms total)
T37B0 001:129 JLINK_WriteMem(0x20000408, 0x0100 Bytes, ...) - Data: 02 29 04 D3 83 07 02 D5 02 80 80 1C 89 1E E3 E7 ... -- CPU_WriteMem(256 bytes @ 0x20000408)  returns 0x100 (0007ms, 0854ms total)
T37B0 001:136 JLINK_WriteReg(R0, 0x08000300)  returns 0x00 (0000ms, 0854ms total)
T37B0 001:136 JLINK_WriteReg(R1, 0x00000100)  returns 0x00 (0000ms, 0854ms total)
T37B0 001:136 JLINK_WriteReg(R2, 0x20000408)  returns 0x00 (0000ms, 0854ms total)
T37B0 001:136 JLINK_WriteReg(R3, 0x00000000)  returns 0x00 (0000ms, 0854ms total)
T37B0 001:136 JLINK_WriteReg(R4, 0x00000000)  returns 0x00 (0000ms, 0854ms total)
T37B0 001:136 JLINK_WriteReg(R5, 0x00000000)  returns 0x00 (0000ms, 0854ms total)
T37B0 001:136 JLINK_WriteReg(R6, 0x00000000)  returns 0x00 (0000ms, 0854ms total)
T37B0 001:136 JLINK_WriteReg(R7, 0x00000000)  returns 0x00 (0000ms, 0854ms total)
T37B0 001:136 JLINK_WriteReg(R8, 0x00000000)  returns 0x00 (0000ms, 0854ms total)
T37B0 001:136 JLINK_WriteReg(R9, 0x20000400)  returns 0x00 (0000ms, 0854ms total)
T37B0 001:136 JLINK_WriteReg(R10, 0x00000000)  returns 0x00 (0000ms, 0854ms total)
T37B0 001:136 JLINK_WriteReg(R11, 0x00000000)  returns 0x00 (0000ms, 0854ms total)
T37B0 001:136 JLINK_WriteReg(R12, 0x00000000)  returns 0x00 (0000ms, 0854ms total)
T37B0 001:136 JLINK_WriteReg(R13 (SP), 0x20001000)  returns 0x00 (0000ms, 0854ms total)
T37B0 001:136 JLINK_WriteReg(R14, 0x20000001)  returns 0x00 (0000ms, 0854ms total)
T37B0 001:136 JLINK_WriteReg(R15 (PC), 0x20000322)  returns 0x00 (0000ms, 0854ms total)
T37B0 001:136 JLINK_WriteReg(XPSR, 0x01000000)  returns 0x00 (0001ms, 0855ms total)
T37B0 001:137 JLINK_WriteReg(MSP, 0x20001000)  returns 0x00 (0000ms, 0855ms total)
T37B0 001:137 JLINK_WriteReg(PSP, 0x20001000)  returns 0x00 (0000ms, 0855ms total)
T37B0 001:137 JLINK_WriteReg(CFBP, 0x00000000)  returns 0x00 (0000ms, 0855ms total)
T37B0 001:137 JLINK_SetBPEx(Addr = 0x20000000, Type = 0xFFFFFFF2)  returns 0x00000008 (0000ms, 0855ms total)
T37B0 001:137 JLINK_Go() -- CPU_ReadMem(4 bytes @ 0xE0001000) -- CPU_WriteMem(4 bytes @ 0xE0001000) (0018ms, 0873ms total)
T37B0 001:155 JLINK_IsHalted() -- CPU_ReadMem(2 bytes @ 0x20000000)  returns TRUE (0014ms, 0887ms total)
T37B0 001:169 JLINK_ReadReg(R15 (PC))  returns 0x20000000 (0000ms, 0873ms total)
T37B0 001:169 JLINK_ClrBPEx(BPHandle = 0x00000008)  returns 0x00 (0000ms, 0873ms total)
T37B0 001:169 JLINK_ReadReg(R0)  returns 0x00000000 (0000ms, 0873ms total)
T37B0 001:170 JLINK_WriteMem(0x20000408, 0x0100 Bytes, ...) - Data: 01 D3 8B 01 C0 1A 52 41 43 09 8B 42 01 D3 4B 01 ... -- CPU_WriteMem(256 bytes @ 0x20000408)  returns 0x100 (0004ms, 0877ms total)
T37B0 001:174 JLINK_WriteReg(R0, 0x08000400)  returns 0x00 (0000ms, 0877ms total)
T37B0 001:174 JLINK_WriteReg(R1, 0x00000100)  returns 0x00 (0000ms, 0877ms total)
T37B0 001:174 JLINK_WriteReg(R2, 0x20000408)  returns 0x00 (0000ms, 0877ms total)
T37B0 001:174 JLINK_WriteReg(R3, 0x00000000)  returns 0x00 (0000ms, 0877ms total)
T37B0 001:174 JLINK_WriteReg(R4, 0x00000000)  returns 0x00 (0000ms, 0877ms total)
T37B0 001:175 JLINK_WriteReg(R5, 0x00000000)  returns 0x00 (0000ms, 0878ms total)
T37B0 001:175 JLINK_WriteReg(R6, 0x00000000)  returns 0x00 (0000ms, 0878ms total)
T37B0 001:175 JLINK_WriteReg(R7, 0x00000000)  returns 0x00 (0000ms, 0878ms total)
T37B0 001:175 JLINK_WriteReg(R8, 0x00000000)  returns 0x00 (0000ms, 0878ms total)
T37B0 001:175 JLINK_WriteReg(R9, 0x20000400)  returns 0x00 (0000ms, 0878ms total)
T37B0 001:175 JLINK_WriteReg(R10, 0x00000000)  returns 0x00 (0000ms, 0878ms total)
T37B0 001:175 JLINK_WriteReg(R11, 0x00000000)  returns 0x00 (0000ms, 0878ms total)
T37B0 001:175 JLINK_WriteReg(R12, 0x00000000)  returns 0x00 (0000ms, 0878ms total)
T37B0 001:175 JLINK_WriteReg(R13 (SP), 0x20001000)  returns 0x00 (0000ms, 0878ms total)
T37B0 001:175 JLINK_WriteReg(R14, 0x20000001)  returns 0x00 (0000ms, 0878ms total)
T37B0 001:175 JLINK_WriteReg(R15 (PC), 0x20000322)  returns 0x00 (0000ms, 0878ms total)
T37B0 001:175 JLINK_WriteReg(XPSR, 0x01000000)  returns 0x00 (0000ms, 0878ms total)
T37B0 001:175 JLINK_WriteReg(MSP, 0x20001000)  returns 0x00 (0000ms, 0878ms total)
T37B0 001:175 JLINK_WriteReg(PSP, 0x20001000)  returns 0x00 (0000ms, 0878ms total)
T37B0 001:175 JLINK_WriteReg(CFBP, 0x00000000)  returns 0x00 (0000ms, 0878ms total)
T37B0 001:175 JLINK_SetBPEx(Addr = 0x20000000, Type = 0xFFFFFFF2)  returns 0x00000009 (0000ms, 0878ms total)
T37B0 001:175 JLINK_Go() -- CPU_ReadMem(4 bytes @ 0xE0001000) -- CPU_WriteMem(4 bytes @ 0xE0001000) (0016ms, 0894ms total)
T37B0 001:191 JLINK_IsHalted() -- CPU_ReadMem(2 bytes @ 0x20000000)  returns TRUE (0012ms, 0906ms total)
T37B0 001:203 JLINK_ReadReg(R15 (PC))  returns 0x20000000 (0000ms, 0894ms total)
T37B0 001:203 JLINK_ClrBPEx(BPHandle = 0x00000009)  returns 0x00 (0000ms, 0894ms total)
T37B0 001:203 JLINK_ReadReg(R0)  returns 0x00000000 (0000ms, 0894ms total)
T37B0 001:203 JLINK_WriteMem(0x20000408, 0x0100 Bytes, ...) - Data: 9D 41 03 D2 C0 1B A1 41 D2 19 63 41 0D 0D 1F 0D ... -- CPU_WriteMem(256 bytes @ 0x20000408)  returns 0x100 (0005ms, 0899ms total)
T37B0 001:208 JLINK_WriteReg(R0, 0x08000500)  returns 0x00 (0000ms, 0899ms total)
T37B0 001:208 JLINK_WriteReg(R1, 0x00000100)  returns 0x00 (0000ms, 0899ms total)
T37B0 001:208 JLINK_WriteReg(R2, 0x20000408)  returns 0x00 (0000ms, 0899ms total)
T37B0 001:208 JLINK_WriteReg(R3, 0x00000000)  returns 0x00 (0000ms, 0899ms total)
T37B0 001:208 JLINK_WriteReg(R4, 0x00000000)  returns 0x00 (0000ms, 0899ms total)
T37B0 001:208 JLINK_WriteReg(R5, 0x00000000)  returns 0x00 (0000ms, 0899ms total)
T37B0 001:208 JLINK_WriteReg(R6, 0x00000000)  returns 0x00 (0000ms, 0899ms total)
T37B0 001:208 JLINK_WriteReg(R7, 0x00000000)  returns 0x00 (0000ms, 0899ms total)
T37B0 001:208 JLINK_WriteReg(R8, 0x00000000)  returns 0x00 (0000ms, 0899ms total)
T37B0 001:208 JLINK_WriteReg(R9, 0x20000400)  returns 0x00 (0000ms, 0899ms total)
T37B0 001:208 JLINK_WriteReg(R10, 0x00000000)  returns 0x00 (0000ms, 0899ms total)
T37B0 001:208 JLINK_WriteReg(R11, 0x00000000)  returns 0x00 (0000ms, 0899ms total)
T37B0 001:208 JLINK_WriteReg(R12, 0x00000000)  returns 0x00 (0000ms, 0899ms total)
T37B0 001:208 JLINK_WriteReg(R13 (SP), 0x20001000)  returns 0x00 (0000ms, 0899ms total)
T37B0 001:208 JLINK_WriteReg(R14, 0x20000001)  returns 0x00 (0000ms, 0899ms total)
T37B0 001:208 JLINK_WriteReg(R15 (PC), 0x20000322)  returns 0x00 (0000ms, 0899ms total)
T37B0 001:208 JLINK_WriteReg(XPSR, 0x01000000)  returns 0x00 (0000ms, 0899ms total)
T37B0 001:208 JLINK_WriteReg(MSP, 0x20001000)  returns 0x00 (0000ms, 0899ms total)
T37B0 001:208 JLINK_WriteReg(PSP, 0x20001000)  returns 0x00 (0000ms, 0899ms total)
T37B0 001:208 JLINK_WriteReg(CFBP, 0x00000000)  returns 0x00 (0000ms, 0899ms total)
T37B0 001:208 JLINK_SetBPEx(Addr = 0x20000000, Type = 0xFFFFFFF2)  returns 0x0000000A (0000ms, 0899ms total)
T37B0 001:208 JLINK_Go() -- CPU_ReadMem(4 bytes @ 0xE0001000) -- CPU_WriteMem(4 bytes @ 0xE0001000) (0012ms, 0911ms total)
T37B0 001:220 JLINK_IsHalted() -- CPU_ReadMem(2 bytes @ 0x20000000)  returns TRUE (0012ms, 0923ms total)
T37B0 001:232 JLINK_ReadReg(R15 (PC))  returns 0x20000000 (0000ms, 0911ms total)
T37B0 001:232 JLINK_ClrBPEx(BPHandle = 0x0000000A)  returns 0x00 (0000ms, 0911ms total)
T37B0 001:232 JLINK_ReadReg(R0)  returns 0x00000000 (0000ms, 0911ms total)
T37B0 001:232 JLINK_WriteMem(0x20000408, 0x0100 Bytes, ...) - Data: 6D 05 EC 42 BC D0 10 46 19 46 F0 BD 99 42 FC D0 ... -- CPU_WriteMem(256 bytes @ 0x20000408)  returns 0x100 (0006ms, 0917ms total)
T37B0 001:238 JLINK_WriteReg(R0, 0x08000600)  returns 0x00 (0000ms, 0917ms total)
T37B0 001:238 JLINK_WriteReg(R1, 0x00000100)  returns 0x00 (0000ms, 0917ms total)
T37B0 001:238 JLINK_WriteReg(R2, 0x20000408)  returns 0x00 (0000ms, 0917ms total)
T37B0 001:238 JLINK_WriteReg(R3, 0x00000000)  returns 0x00 (0000ms, 0917ms total)
T37B0 001:238 JLINK_WriteReg(R4, 0x00000000)  returns 0x00 (0000ms, 0917ms total)
T37B0 001:238 JLINK_WriteReg(R5, 0x00000000)  returns 0x00 (0000ms, 0917ms total)
T37B0 001:238 JLINK_WriteReg(R6, 0x00000000)  returns 0x00 (0000ms, 0917ms total)
T37B0 001:238 JLINK_WriteReg(R7, 0x00000000)  returns 0x00 (0000ms, 0917ms total)
T37B0 001:238 JLINK_WriteReg(R8, 0x00000000)  returns 0x00 (0000ms, 0917ms total)
T37B0 001:238 JLINK_WriteReg(R9, 0x20000400)  returns 0x00 (0000ms, 0917ms total)
T37B0 001:238 JLINK_WriteReg(R10, 0x00000000)  returns 0x00 (0000ms, 0917ms total)
T37B0 001:238 JLINK_WriteReg(R11, 0x00000000)  returns 0x00 (0000ms, 0917ms total)
T37B0 001:238 JLINK_WriteReg(R12, 0x00000000)  returns 0x00 (0000ms, 0917ms total)
T37B0 001:238 JLINK_WriteReg(R13 (SP), 0x20001000)  returns 0x00 (0000ms, 0917ms total)
T37B0 001:238 JLINK_WriteReg(R14, 0x20000001)  returns 0x00 (0000ms, 0917ms total)
T37B0 001:238 JLINK_WriteReg(R15 (PC), 0x20000322)  returns 0x00 (0000ms, 0917ms total)
T37B0 001:238 JLINK_WriteReg(XPSR, 0x01000000)  returns 0x00 (0000ms, 0917ms total)
T37B0 001:238 JLINK_WriteReg(MSP, 0x20001000)  returns 0x00 (0000ms, 0917ms total)
T37B0 001:238 JLINK_WriteReg(PSP, 0x20001000)  returns 0x00 (0000ms, 0917ms total)
T37B0 001:238 JLINK_WriteReg(CFBP, 0x00000000)  returns 0x00 (0000ms, 0917ms total)
T37B0 001:238 JLINK_SetBPEx(Addr = 0x20000000, Type = 0xFFFFFFF2)  returns 0x0000000B (0000ms, 0917ms total)
T37B0 001:238 JLINK_Go() -- CPU_ReadMem(4 bytes @ 0xE0001000) -- CPU_WriteMem(4 bytes @ 0xE0001000) (0012ms, 0929ms total)
T37B0 001:251 JLINK_IsHalted() -- CPU_ReadMem(2 bytes @ 0x20000000)  returns TRUE (0009ms, 0938ms total)
T37B0 001:260 JLINK_ReadReg(R15 (PC))  returns 0x20000000 (0000ms, 0929ms total)
T37B0 001:260 JLINK_ClrBPEx(BPHandle = 0x0000000B)  returns 0x00 (0000ms, 0929ms total)
T37B0 001:260 JLINK_ReadReg(R0)  returns 0x00000000 (0000ms, 0929ms total)
T37B0 001:261 JLINK_WriteMem(0x20000408, 0x0100 Bytes, ...) - Data: 08 D1 02 0C 03 D0 02 0C 00 04 10 39 02 E0 02 46 ... -- CPU_WriteMem(256 bytes @ 0x20000408)  returns 0x100 (0005ms, 0934ms total)
T37B0 001:266 JLINK_WriteReg(R0, 0x08000700)  returns 0x00 (0000ms, 0934ms total)
T37B0 001:266 JLINK_WriteReg(R1, 0x00000100)  returns 0x00 (0000ms, 0934ms total)
T37B0 001:266 JLINK_WriteReg(R2, 0x20000408)  returns 0x00 (0000ms, 0934ms total)
T37B0 001:266 JLINK_WriteReg(R3, 0x00000000)  returns 0x00 (0000ms, 0934ms total)
T37B0 001:266 JLINK_WriteReg(R4, 0x00000000)  returns 0x00 (0000ms, 0934ms total)
T37B0 001:266 JLINK_WriteReg(R5, 0x00000000)  returns 0x00 (0000ms, 0934ms total)
T37B0 001:266 JLINK_WriteReg(R6, 0x00000000)  returns 0x00 (0000ms, 0934ms total)
T37B0 001:266 JLINK_WriteReg(R7, 0x00000000)  returns 0x00 (0000ms, 0934ms total)
T37B0 001:266 JLINK_WriteReg(R8, 0x00000000)  returns 0x00 (0000ms, 0934ms total)
T37B0 001:266 JLINK_WriteReg(R9, 0x20000400)  returns 0x00 (0000ms, 0934ms total)
T37B0 001:266 JLINK_WriteReg(R10, 0x00000000)  returns 0x00 (0000ms, 0934ms total)
T37B0 001:266 JLINK_WriteReg(R11, 0x00000000)  returns 0x00 (0000ms, 0934ms total)
T37B0 001:266 JLINK_WriteReg(R12, 0x00000000)  returns 0x00 (0000ms, 0934ms total)
T37B0 001:266 JLINK_WriteReg(R13 (SP), 0x20001000)  returns 0x00 (0000ms, 0934ms total)
T37B0 001:266 JLINK_WriteReg(R14, 0x20000001)  returns 0x00 (0000ms, 0934ms total)
T37B0 001:266 JLINK_WriteReg(R15 (PC), 0x20000322)  returns 0x00 (0000ms, 0934ms total)
T37B0 001:266 JLINK_WriteReg(XPSR, 0x01000000)  returns 0x00 (0000ms, 0934ms total)
T37B0 001:266 JLINK_WriteReg(MSP, 0x20001000)  returns 0x00 (0000ms, 0934ms total)
T37B0 001:266 JLINK_WriteReg(PSP, 0x20001000)  returns 0x00 (0000ms, 0934ms total)
T37B0 001:266 JLINK_WriteReg(CFBP, 0x00000000)  returns 0x00 (0000ms, 0934ms total)
T37B0 001:266 JLINK_SetBPEx(Addr = 0x20000000, Type = 0xFFFFFFF2)  returns 0x0000000C (0000ms, 0934ms total)
T37B0 001:266 JLINK_Go() -- CPU_ReadMem(4 bytes @ 0xE0001000) -- CPU_WriteMem(4 bytes @ 0xE0001000) (0009ms, 0943ms total)
T37B0 001:275 JLINK_IsHalted() -- CPU_ReadMem(2 bytes @ 0x20000000)  returns TRUE (0010ms, 0953ms total)
T37B0 001:285 JLINK_ReadReg(R15 (PC))  returns 0x20000000 (0000ms, 0943ms total)
T37B0 001:285 JLINK_ClrBPEx(BPHandle = 0x0000000C)  returns 0x00 (0000ms, 0943ms total)
T37B0 001:285 JLINK_ReadReg(R0)  returns 0x00000000 (0001ms, 0944ms total)
T37B0 001:286 JLINK_WriteMem(0x20000408, 0x0100 Bytes, ...) - Data: FF F7 78 FE 10 BD 30 B4 0C 46 5C 40 04 D5 01 24 ... -- CPU_WriteMem(256 bytes @ 0x20000408)  returns 0x100 (0004ms, 0948ms total)
T37B0 001:290 JLINK_WriteReg(R0, 0x08000800)  returns 0x00 (0000ms, 0948ms total)
T37B0 001:290 JLINK_WriteReg(R1, 0x00000100)  returns 0x00 (0000ms, 0948ms total)
T37B0 001:290 JLINK_WriteReg(R2, 0x20000408)  returns 0x00 (0000ms, 0948ms total)
T37B0 001:290 JLINK_WriteReg(R3, 0x00000000)  returns 0x00 (0000ms, 0948ms total)
T37B0 001:290 JLINK_WriteReg(R4, 0x00000000)  returns 0x00 (0000ms, 0948ms total)
T37B0 001:290 JLINK_WriteReg(R5, 0x00000000)  returns 0x00 (0000ms, 0948ms total)
T37B0 001:290 JLINK_WriteReg(R6, 0x00000000)  returns 0x00 (0000ms, 0948ms total)
T37B0 001:290 JLINK_WriteReg(R7, 0x00000000)  returns 0x00 (0000ms, 0948ms total)
T37B0 001:290 JLINK_WriteReg(R8, 0x00000000)  returns 0x00 (0001ms, 0949ms total)
T37B0 001:291 JLINK_WriteReg(R9, 0x20000400)  returns 0x00 (0000ms, 0949ms total)
T37B0 001:291 JLINK_WriteReg(R10, 0x00000000)  returns 0x00 (0000ms, 0949ms total)
T37B0 001:291 JLINK_WriteReg(R11, 0x00000000)  returns 0x00 (0000ms, 0949ms total)
T37B0 001:291 JLINK_WriteReg(R12, 0x00000000)  returns 0x00 (0000ms, 0949ms total)
T37B0 001:291 JLINK_WriteReg(R13 (SP), 0x20001000)  returns 0x00 (0000ms, 0949ms total)
T37B0 001:291 JLINK_WriteReg(R14, 0x20000001)  returns 0x00 (0000ms, 0949ms total)
T37B0 001:291 JLINK_WriteReg(R15 (PC), 0x20000322)  returns 0x00 (0000ms, 0949ms total)
T37B0 001:291 JLINK_WriteReg(XPSR, 0x01000000)  returns 0x00 (0000ms, 0949ms total)
T37B0 001:291 JLINK_WriteReg(MSP, 0x20001000)  returns 0x00 (0000ms, 0949ms total)
T37B0 001:291 JLINK_WriteReg(PSP, 0x20001000)  returns 0x00 (0000ms, 0949ms total)
T37B0 001:291 JLINK_WriteReg(CFBP, 0x00000000)  returns 0x00 (0000ms, 0949ms total)
T37B0 001:291 JLINK_SetBPEx(Addr = 0x20000000, Type = 0xFFFFFFF2)  returns 0x0000000D (0000ms, 0949ms total)
T37B0 001:291 JLINK_Go() -- CPU_ReadMem(4 bytes @ 0xE0001000) -- CPU_WriteMem(4 bytes @ 0xE0001000) (0012ms, 0961ms total)
T37B0 001:303 JLINK_IsHalted() -- CPU_ReadMem(2 bytes @ 0x20000000)  returns TRUE (0009ms, 0970ms total)
T37B0 001:312 JLINK_ReadReg(R15 (PC))  returns 0x20000000 (0000ms, 0961ms total)
T37B0 001:312 JLINK_ClrBPEx(BPHandle = 0x0000000D)  returns 0x00 (0000ms, 0961ms total)
T37B0 001:313 JLINK_ReadReg(R0)  returns 0x00000000 (0000ms, 0962ms total)
T37B0 001:313 JLINK_WriteMem(0x20000408, 0x0100 Bytes, ...) - Data: 4C 08 05 9D E1 0B 4D 43 2D 0C 29 46 66 46 75 43 ... -- CPU_WriteMem(256 bytes @ 0x20000408)  returns 0x100 (0005ms, 0967ms total)
T37B0 001:318 JLINK_WriteReg(R0, 0x08000900)  returns 0x00 (0000ms, 0967ms total)
T37B0 001:318 JLINK_WriteReg(R1, 0x00000100)  returns 0x00 (0000ms, 0967ms total)
T37B0 001:318 JLINK_WriteReg(R2, 0x20000408)  returns 0x00 (0000ms, 0967ms total)
T37B0 001:318 JLINK_WriteReg(R3, 0x00000000)  returns 0x00 (0000ms, 0967ms total)
T37B0 001:318 JLINK_WriteReg(R4, 0x00000000)  returns 0x00 (0000ms, 0967ms total)
T37B0 001:318 JLINK_WriteReg(R5, 0x00000000)  returns 0x00 (0000ms, 0967ms total)
T37B0 001:318 JLINK_WriteReg(R6, 0x00000000)  returns 0x00 (0000ms, 0967ms total)
T37B0 001:318 JLINK_WriteReg(R7, 0x00000000)  returns 0x00 (0000ms, 0967ms total)
T37B0 001:318 JLINK_WriteReg(R8, 0x00000000)  returns 0x00 (0000ms, 0967ms total)
T37B0 001:318 JLINK_WriteReg(R9, 0x20000400)  returns 0x00 (0000ms, 0967ms total)
T37B0 001:318 JLINK_WriteReg(R10, 0x00000000)  returns 0x00 (0000ms, 0967ms total)
T37B0 001:318 JLINK_WriteReg(R11, 0x00000000)  returns 0x00 (0000ms, 0967ms total)
T37B0 001:318 JLINK_WriteReg(R12, 0x00000000)  returns 0x00 (0000ms, 0967ms total)
T37B0 001:318 JLINK_WriteReg(R13 (SP), 0x20001000)  returns 0x00 (0000ms, 0967ms total)
T37B0 001:318 JLINK_WriteReg(R14, 0x20000001)  returns 0x00 (0000ms, 0967ms total)
T37B0 001:318 JLINK_WriteReg(R15 (PC), 0x20000322)  returns 0x00 (0000ms, 0967ms total)
T37B0 001:318 JLINK_WriteReg(XPSR, 0x01000000)  returns 0x00 (0000ms, 0967ms total)
T37B0 001:318 JLINK_WriteReg(MSP, 0x20001000)  returns 0x00 (0000ms, 0967ms total)
T37B0 001:318 JLINK_WriteReg(PSP, 0x20001000)  returns 0x00 (0000ms, 0967ms total)
T37B0 001:318 JLINK_WriteReg(CFBP, 0x00000000)  returns 0x00 (0000ms, 0967ms total)
T37B0 001:318 JLINK_SetBPEx(Addr = 0x20000000, Type = 0xFFFFFFF2)  returns 0x0000000E (0000ms, 0967ms total)
T37B0 001:318 JLINK_Go() -- CPU_ReadMem(4 bytes @ 0xE0001000) -- CPU_WriteMem(4 bytes @ 0xE0001000) (0012ms, 0979ms total)
T37B0 001:330 JLINK_IsHalted() -- CPU_ReadMem(2 bytes @ 0x20000000)  returns TRUE (0012ms, 0991ms total)
T37B0 001:342 JLINK_ReadReg(R15 (PC))  returns 0x20000000 (0000ms, 0979ms total)
T37B0 001:342 JLINK_ClrBPEx(BPHandle = 0x0000000E)  returns 0x00 (0000ms, 0979ms total)
T37B0 001:342 JLINK_ReadReg(R0)  returns 0x00000000 (0000ms, 0979ms total)
T37B0 001:343 JLINK_WriteMem(0x20000408, 0x0100 Bytes, ...) - Data: 07 9D 34 43 69 18 07 91 05 9D E1 0B 4D 43 2D 0C ... -- CPU_WriteMem(256 bytes @ 0x20000408)  returns 0x100 (0005ms, 0984ms total)
T37B0 001:348 JLINK_WriteReg(R0, 0x08000A00)  returns 0x00 (0000ms, 0984ms total)
T37B0 001:348 JLINK_WriteReg(R1, 0x00000100)  returns 0x00 (0000ms, 0984ms total)
T37B0 001:348 JLINK_WriteReg(R2, 0x20000408)  returns 0x00 (0000ms, 0984ms total)
T37B0 001:348 JLINK_WriteReg(R3, 0x00000000)  returns 0x00 (0000ms, 0984ms total)
T37B0 001:348 JLINK_WriteReg(R4, 0x00000000)  returns 0x00 (0000ms, 0984ms total)
T37B0 001:348 JLINK_WriteReg(R5, 0x00000000)  returns 0x00 (0000ms, 0984ms total)
T37B0 001:348 JLINK_WriteReg(R6, 0x00000000)  returns 0x00 (0000ms, 0984ms total)
T37B0 001:348 JLINK_WriteReg(R7, 0x00000000)  returns 0x00 (0000ms, 0984ms total)
T37B0 001:348 JLINK_WriteReg(R8, 0x00000000)  returns 0x00 (0000ms, 0984ms total)
T37B0 001:348 JLINK_WriteReg(R9, 0x20000400)  returns 0x00 (0000ms, 0984ms total)
T37B0 001:348 JLINK_WriteReg(R10, 0x00000000)  returns 0x00 (0000ms, 0984ms total)
T37B0 001:348 JLINK_WriteReg(R11, 0x00000000)  returns 0x00 (0000ms, 0984ms total)
T37B0 001:348 JLINK_WriteReg(R12, 0x00000000)  returns 0x00 (0000ms, 0984ms total)
T37B0 001:348 JLINK_WriteReg(R13 (SP), 0x20001000)  returns 0x00 (0000ms, 0984ms total)
T37B0 001:348 JLINK_WriteReg(R14, 0x20000001)  returns 0x00 (0000ms, 0984ms total)
T37B0 001:348 JLINK_WriteReg(R15 (PC), 0x20000322)  returns 0x00 (0000ms, 0984ms total)
T37B0 001:348 JLINK_WriteReg(XPSR, 0x01000000)  returns 0x00 (0000ms, 0984ms total)
T37B0 001:348 JLINK_WriteReg(MSP, 0x20001000)  returns 0x00 (0000ms, 0984ms total)
T37B0 001:348 JLINK_WriteReg(PSP, 0x20001000)  returns 0x00 (0000ms, 0984ms total)
T37B0 001:348 JLINK_WriteReg(CFBP, 0x00000000)  returns 0x00 (0000ms, 0984ms total)
T37B0 001:348 JLINK_SetBPEx(Addr = 0x20000000, Type = 0xFFFFFFF2)  returns 0x0000000F (0000ms, 0984ms total)
T37B0 001:348 JLINK_Go() -- CPU_ReadMem(4 bytes @ 0xE0001000) -- CPU_WriteMem(4 bytes @ 0xE0001000) (0015ms, 0999ms total)
T37B0 001:363 JLINK_IsHalted() -- CPU_ReadMem(2 bytes @ 0x20000000)  returns TRUE (0011ms, 1010ms total)
T37B0 001:374 JLINK_ReadReg(R15 (PC))  returns 0x20000000 (0000ms, 0999ms total)
T37B0 001:374 JLINK_ClrBPEx(BPHandle = 0x0000000F)  returns 0x00 (0000ms, 0999ms total)
T37B0 001:374 JLINK_ReadReg(R0)  returns 0x00000000 (0000ms, 0999ms total)
T37B0 001:374 JLINK_WriteMem(0x20000408, 0x0100 Bytes, ...) - Data: 64 00 3A 43 A4 46 04 46 D7 1A 8C 41 A0 42 03 D9 ... -- CPU_WriteMem(256 bytes @ 0x20000408)  returns 0x100 (0006ms, 1005ms total)
T37B0 001:380 JLINK_WriteReg(R0, 0x08000B00)  returns 0x00 (0000ms, 1005ms total)
T37B0 001:380 JLINK_WriteReg(R1, 0x00000100)  returns 0x00 (0000ms, 1005ms total)
T37B0 001:380 JLINK_WriteReg(R2, 0x20000408)  returns 0x00 (0000ms, 1005ms total)
T37B0 001:380 JLINK_WriteReg(R3, 0x00000000)  returns 0x00 (0000ms, 1005ms total)
T37B0 001:380 JLINK_WriteReg(R4, 0x00000000)  returns 0x00 (0000ms, 1005ms total)
T37B0 001:380 JLINK_WriteReg(R5, 0x00000000)  returns 0x00 (0000ms, 1005ms total)
T37B0 001:380 JLINK_WriteReg(R6, 0x00000000)  returns 0x00 (0000ms, 1005ms total)
T37B0 001:380 JLINK_WriteReg(R7, 0x00000000)  returns 0x00 (0000ms, 1005ms total)
T37B0 001:380 JLINK_WriteReg(R8, 0x00000000)  returns 0x00 (0000ms, 1005ms total)
T37B0 001:380 JLINK_WriteReg(R9, 0x20000400)  returns 0x00 (0000ms, 1005ms total)
T37B0 001:380 JLINK_WriteReg(R10, 0x00000000)  returns 0x00 (0000ms, 1005ms total)
T37B0 001:380 JLINK_WriteReg(R11, 0x00000000)  returns 0x00 (0000ms, 1005ms total)
T37B0 001:380 JLINK_WriteReg(R12, 0x00000000)  returns 0x00 (0000ms, 1005ms total)
T37B0 001:380 JLINK_WriteReg(R13 (SP), 0x20001000)  returns 0x00 (0000ms, 1005ms total)
T37B0 001:380 JLINK_WriteReg(R14, 0x20000001)  returns 0x00 (0000ms, 1005ms total)
T37B0 001:380 JLINK_WriteReg(R15 (PC), 0x20000322)  returns 0x00 (0000ms, 1005ms total)
T37B0 001:380 JLINK_WriteReg(XPSR, 0x01000000)  returns 0x00 (0000ms, 1005ms total)
T37B0 001:380 JLINK_WriteReg(MSP, 0x20001000)  returns 0x00 (0000ms, 1005ms total)
T37B0 001:380 JLINK_WriteReg(PSP, 0x20001000)  returns 0x00 (0000ms, 1005ms total)
T37B0 001:380 JLINK_WriteReg(CFBP, 0x00000000)  returns 0x00 (0000ms, 1005ms total)
T37B0 001:380 JLINK_SetBPEx(Addr = 0x20000000, Type = 0xFFFFFFF2)  returns 0x00000010 (0000ms, 1005ms total)
T37B0 001:380 JLINK_Go() -- CPU_ReadMem(4 bytes @ 0xE0001000) -- CPU_WriteMem(4 bytes @ 0xE0001000) (0015ms, 1020ms total)
T37B0 001:396 JLINK_IsHalted() -- CPU_ReadMem(2 bytes @ 0x20000000)  returns TRUE (0010ms, 1031ms total)
T37B0 001:406 JLINK_ReadReg(R15 (PC))  returns 0x20000000 (0000ms, 1021ms total)
T37B0 001:407 JLINK_ClrBPEx(BPHandle = 0x00000010)  returns 0x00 (0000ms, 1022ms total)
T37B0 001:407 JLINK_ReadReg(R0)  returns 0x00000000 (0000ms, 1022ms total)
T37B0 001:407 JLINK_WriteMem(0x20000408, 0x0100 Bytes, ...) - Data: 0A D1 5C 00 D4 42 0B D0 4B 40 02 D5 92 02 11 43 ... -- CPU_WriteMem(256 bytes @ 0x20000408)  returns 0x100 (0004ms, 1026ms total)
T37B0 001:411 JLINK_WriteReg(R0, 0x08000C00)  returns 0x00 (0000ms, 1026ms total)
T37B0 001:411 JLINK_WriteReg(R1, 0x00000100)  returns 0x00 (0000ms, 1026ms total)
T37B0 001:411 JLINK_WriteReg(R2, 0x20000408)  returns 0x00 (0000ms, 1026ms total)
T37B0 001:411 JLINK_WriteReg(R3, 0x00000000)  returns 0x00 (0000ms, 1026ms total)
T37B0 001:411 JLINK_WriteReg(R4, 0x00000000)  returns 0x00 (0000ms, 1026ms total)
T37B0 001:411 JLINK_WriteReg(R5, 0x00000000)  returns 0x00 (0000ms, 1026ms total)
T37B0 001:411 JLINK_WriteReg(R6, 0x00000000)  returns 0x00 (0000ms, 1026ms total)
T37B0 001:411 JLINK_WriteReg(R7, 0x00000000)  returns 0x00 (0000ms, 1026ms total)
T37B0 001:411 JLINK_WriteReg(R8, 0x00000000)  returns 0x00 (0000ms, 1026ms total)
T37B0 001:411 JLINK_WriteReg(R9, 0x20000400)  returns 0x00 (0000ms, 1026ms total)
T37B0 001:411 JLINK_WriteReg(R10, 0x00000000)  returns 0x00 (0000ms, 1026ms total)
T37B0 001:411 JLINK_WriteReg(R11, 0x00000000)  returns 0x00 (0000ms, 1026ms total)
T37B0 001:412 JLINK_WriteReg(R12, 0x00000000)  returns 0x00 (0000ms, 1027ms total)
T37B0 001:412 JLINK_WriteReg(R13 (SP), 0x20001000)  returns 0x00 (0000ms, 1027ms total)
T37B0 001:412 JLINK_WriteReg(R14, 0x20000001)  returns 0x00 (0000ms, 1027ms total)
T37B0 001:412 JLINK_WriteReg(R15 (PC), 0x20000322)  returns 0x00 (0000ms, 1027ms total)
T37B0 001:412 JLINK_WriteReg(XPSR, 0x01000000)  returns 0x00 (0000ms, 1027ms total)
T37B0 001:412 JLINK_WriteReg(MSP, 0x20001000)  returns 0x00 (0000ms, 1027ms total)
T37B0 001:412 JLINK_WriteReg(PSP, 0x20001000)  returns 0x00 (0000ms, 1027ms total)
T37B0 001:412 JLINK_WriteReg(CFBP, 0x00000000)  returns 0x00 (0000ms, 1027ms total)
T37B0 001:412 JLINK_SetBPEx(Addr = 0x20000000, Type = 0xFFFFFFF2)  returns 0x00000011 (0000ms, 1027ms total)
T37B0 001:412 JLINK_Go() -- CPU_ReadMem(4 bytes @ 0xE0001000) -- CPU_WriteMem(4 bytes @ 0xE0001000) (0010ms, 1037ms total)
T37B0 001:422 JLINK_IsHalted() -- CPU_ReadMem(2 bytes @ 0x20000000)  returns TRUE (0011ms, 1048ms total)
T37B0 001:434 JLINK_ReadReg(R15 (PC))  returns 0x20000000 (0000ms, 1037ms total)
T37B0 001:434 JLINK_ClrBPEx(BPHandle = 0x00000011)  returns 0x00 (0000ms, 1037ms total)
T37B0 001:434 JLINK_ReadReg(R0)  returns 0x00000000 (0000ms, 1037ms total)
T37B0 001:434 JLINK_WriteMem(0x20000408, 0x0100 Bytes, ...) - Data: 83 0F 01 D1 80 00 92 1E 00 28 01 DB 40 00 52 1E ... -- CPU_WriteMem(256 bytes @ 0x20000408)  returns 0x100 (0006ms, 1043ms total)
